Date : 21/4/25

Set Temp 37 degree
measured temp is 25.5

started logs and then gave stimulus;
Went upto 36 degree
Removed stimulus;
Came down to 25.5 degreee



PS C:\Users\DELL> python -m serial.tools.miniterm COM3 115200
--- Miniterm on COM3  115200,8,N,1 ---
--- Quit: Ctrl+] | Menu: Ctrl+T | Help: Ctrl+T followed by Ctrl+H ---
00:08:17.069 V: [rs485]: Received: 0 - 7e 20 ff af 13 00 03 34 0c 08 00 28 03 06 03 18 00 00 02 00 00 00 00 02 02 4a 00 00 00 1e 00 00 09 7e
00:08:17.369 V: [Mess]: Status Response: 00 03 34 0c 08 00 28 03 06 03 18 00 00 02 00 00 00 00 02 02 4a 00 00 00 1e 00 00
00:08:18.567 V: [rs485]: Received: 10 - 7e 20 ff af 13 00 03 35 0c 08 00 28 03 06 03 18 00 00 02 00 00 00 00 02 02 4a 00 00 00 1e 00 00 fb 7e
00:08:18.568 V: [Mess]: Status Response: 00 03 35 0c 08 00 28 03 06 03 18 00 00 02 00 00 00 00 02 02 4a 00 00 00 1e 00 00
00:08:19.460 V: [rs485]: Received: 10 - 7e 20 ff af 13 00 03 36 0c 08 00 28 03 06 03 18 00 00 02 00 00 00 00 02 02 4a 00 00 00 1e 00 00 ea 7e
00:08:19.461 V: [Mess]: Status Response: 00 03 36 0c 08 00 28 03 06 03 18 00 00 02 00 00 00 00 02 02 4a 00 00 00 1e 00 00
00:08:20.216 V: [rs485]: Received: 10 - 7e 20 ff af 13 00 03 37 0c 08 00 28 03 06 03 18 00 00 02 00 00 00 00 02 02 4a 00 00 00 1e 00 00 18 7e
00:08:20.217 V: [Mess]: Status Response: 00 03 37 0c 08 00 28 03 06 03 18 00 00 02 00 00 00 00 02 02 4a 00 00 00 1e 00 00
00:08:20.862 V: [rs485]: Received: 0 - 7e 20 ff af 13 00 03 38 0c 08 00 28 03 06 03 18 00 00 02 00 00 00 00 02 02 4a 00 00 00 1e 00 00 4d 7e
00:08:21.011 V: [rs485]: Received: 0 - 7e 20 ff af 13 00 03 3b 0c 08 00 28 03 06 03 18 00 00 02 00 00 00 00 02 02 4a 00 00 00 1e 00 00 5c 7e
00:08:21.264 V: [Mess]: Status Response: 00 03 3b 0c 08 00 28 03 06 03 18 00 00 02 00 00 00 00 02 02 4a 00 00 00 1e 00 00
00:08:21.970 V: [rs485]: Received: 10 - 7e 20 ff af 13 00 03 3c 0c 08 00 28 03 06 03 18 00 00 02 00 00 00 00 02 02 4a 00 00 00 1e 00 00 8c 7e
00:08:21.971 V: [Mess]: Status Response: 00 03 3c 0c 08 00 28 03 06 03 18 00 00 02 00 00 00 00 02 02 4a 00 00 00 1e 00 00
00:08:22.581 V: [rs485]: Received: 10 - 7e 20 ff af 13 00 03 3d 0c 08 00 28 03 06 03 18 00 00 02 00 00 00 00 02 02 4a 00 00 00 1e 00 00 7e 7e
00:08:22.582 V: [Mess]: Status Response: 00 03 3d 0c 08 00 28 03 06 03 18 00 00 02 00 00 00 00 02 02 4a 00 00 00 1e 00 00
00:08:23.472 V: [rs485]: Received: 10 - 7e 20 ff af 13 00 03 3f 0c 08 00 28 03 06 03 18 00 00 02 00 00 00 00 02 02 4a 00 00 00 1e 00 00 9d 7e
00:08:23.474 V: [Mess]: Status Response: 00 03 3f 0c 08 00 28 03 06 03 18 00 00 02 00 00 00 00 02 02 4a 00 00 00 1e 00 00
00:08:24.302 V: [rs485]: Received: 10 - 7e 20 ff af 13 00 03 40 0c 08 00 28 03 06 03 18 00 00 02 00 00 00 00 02 02 4a 00 00 00 1e 00 00 eb 7e
00:08:24.304 V: [Mess]: Status Response: 00 03 40 0c 08 00 28 03 06 03 18 00 00 02 00 00 00 00 02 02 4a 00 00 00 1e 00 00
00:08:25.087 V: [rs485]: Received: 10 - 7e 20 ff af 13 00 03 41 0c 08 00 28 03 06 03 18 00 00 02 00 00 00 00 02 02 4a 00 00 00 1e 00 00 19 7e
00:08:25.089 V: [Mess]: Status Response: 00 03 41 0c 08 00 28 03 06 03 18 00 00 02 00 00 00 00 02 02 4a 00 00 00 1e 00 00
00:08:26.012 V: [rs485]: Received: 10 - 7e 20 ff af 13 00 03 42 0c 08 00 28 03 06 03 18 00 00 02 00 00 00 00 02 02 4a 00 00 00 1e 00 00 08 7e
00:08:26.013 V: [Mess]: Status Response: 00 03 42 0c 08 00 28 03 06 03 18 00 00 02 00 00 00 00 02 02 4a 00 00 00 1e 00 00
00:08:27.259 V: [rs485]: Received: 10 - 7e 20 ff af 13 00 03 43 0c 08 00 28 03 06 03 18 00 00 02 00 00 00 00 02 02 4a 00 00 00 1e 00 00 fa 7e
00:08:27.260 V: [Mess]: Status Response: 00 03 43 0c 08 00 28 03 06 03 18 00 00 02 00 00 00 00 02 02 4a 00 00 00 1e 00 00
00:08:28.757 V: [rs485]: Received: 10 - 7e 20 ff af 13 00 03 44 0c 08 00 28 03 06 03 18 00 00 02 00 00 00 00 02 02 4a 00 00 00 1e 00 00 2a 7e
00:08:28.758 V: [Mess]: Status Response: 00 03 44 0c 08 00 28 03 06 03 18 00 00 02 00 00 00 00 02 02 4a 00 00 00 1e 00 00
00:08:31.154 V: [rs485]: Received: 0 - 7e 20 ff af 13 00 03 45 0c 08 00 28 03 06 03 18 00 00 02 00 00 00 00 02 02 4a 00 00 00 1e 00 00 d8 7e
00:08:31.451 V: [Mess]: Status Response: 00 03 45 0c 08 00 28 03 06 03 18 00 00 02 00 00 00 00 02 02 4a 00 00 00 1e 00 00
00:08:33.847 V: [rs485]: Received: 10 - 7e 20 ff af 13 00 03 46 0c 08 00 28 03 06 03 18 00 00 02 00 00 00 00 02 02 4a 00 00 00 1e 00 00 c9 7e
00:08:33.848 V: [Mess]: Status Response: 00 03 46 0c 08 00 28 03 06 03 18 00 00 02 00 00 00 00 02 02 4a 00 00 00 1e 00 00
00:08:38.641 V: [rs485]: Received: 10 - 7e 20 ff af 13 00 03 47 0c 08 00 28 03 06 03 18 00 00 02 00 00 00 00 02 02 4a 00 00 00 1e 00 00 3b 7e
00:08:38.642 V: [Mess]: Status Response: 00 03 47 0c 08 00 28 03 06 03 18 00 00 02 00 00 00 00 02 02 4a 00 00 00 1e 00 00
00:08:47.969 V: [rs485]: Received: 0 - 7e 20 ff af 13 00 03 48 0c 08 00 28 03 06 03 18 00 00 02 00 00 00 00 02 02 4a 00 00 00 1e 00 00 6e 7e
00:08:48.230 V: [Mess]: Status Response: 00 03 48 0c 08 00 28 03 06 03 18 00 00 02 00 00 00 00 02 02 4a 00 00 00 1e 00 00
00:09:02.953 V: [rs485]: Received: 0 - 7e 20 ff af 13 00 03 48 0c 09 00 28 03 06 03 18 00 00 02 00 00 00 00 02 02 4a 00 00 00 1e 00 00 d7 7e
00:09:03.213 V: [Mess]: Status Response: 00 03 48 0c 09 00 28 03 06 03 18 00 00 02 00 00 00 00 02 02 4a 00 00 00 1e 00 00
00:09:14.305 V: [rs485]: Received: 10 - 7e 20 ff af 13 00 03 49 0c 09 00 28 03 06 03 18 00 00 02 00 00 00 00 02 02 4a 00 00 00 1e 00 00 25 7e
00:09:14.306 V: [Mess]: Status Response: 00 03 49 0c 09 00 28 03 06 03 18 00 00 02 00 00 00 00 02 02 4a 00 00 00 1e 00 00
00:09:41.924 V: [rs485]: Received: 0 - 7e 20 ff af 13 00 03 48 0c 09 00 28 03 06 03 18 00 00 02 00 00 00 00 02 02 4a 00 00 00 1e 00 00 d7 7e
00:09:42.185 V: [Mess]: Status Response: 00 03 48 0c 09 00 28 03 06 03 18 00 00 02 00 00 00 00 02 02 4a 00 00 00 1e 00 00
00:09:58.378 V: [rs485]: Received: 10 - 7e 20 ff af 13 00 03 47 0c 09 00 28 03 06 03 18 00 00 02 00 00 00 00 02 02 4a 00 00 00 1e 00 00 82 7e
00:09:58.379 V: [Mess]: Status Response: 00 03 47 0c 09 00 28 03 06 03 18 00 00 02 00 00 00 00 02 02 4a 00 00 00 1e 00 00
00:09:59.618 V: [rs485]: Received: 10 - 7e 20 ff af 13 00 03 46 0c 09 00 28 03 06 03 18 00 00 02 00 00 00 00 02 02 4a 00 00 00 1e 00 00 70 7e
00:09:59.619 V: [Mess]: Status Response: 00 03 46 0c 09 00 28 03 06 03 18 00 00 02 00 00 00 00 02 02 4a 00 00 00 1e 00 00
00:10:00.856 V: [rs485]: Received: 10 - 7e 20 ff af 13 00 03 45 0c 09 00 28 03 06 03 18 00 00 02 00 00 00 00 02 02 4a 00 00 00 1e 00 00 61 7e
00:10:00.857 V: [Mess]: Status Response: 00 03 45 0c 09 00 28 03 06 03 18 00 00 02 00 00 00 00 02 02 4a 00 00 00 1e 00 00
00:10:01.886 V: [rs485]: Received: 10 - 7e 20 ff af 13 00 03 44 0c 09 00 28 03 06 03 18 00 00 02 00 00 00 00 02 02 4a 00 00 00 1e 00 00 93 7e
00:10:01.887 V: [Mess]: Status Response: 00 03 44 0c 09 00 28 03 06 03 18 00 00 02 00 00 00 00 02 02 4a 00 00 00 1e 00 00
00:10:02.995 V: [rs485]: Received: 0 - 7e 20 ff af 13 00 03 44 0c 0a 00 28 03 06 03 18 00 00 02 00 00 00 00 02 02 4a 00 00 00 1e 00 00 5f 7e
00:10:03.175 V: [rs485]: Received: 10 - 7e 20 ff af 13 00 03 43 0c 0a 00 28 03 06 03 18 00 00 02 00 00 00 00 02 02 4a 00 00 00 1e 00 00 8f 7e
00:10:03.176 V: [Mess]: Status Response: 00 03 43 0c 0a 00 28 03 06 03 18 00 00 02 00 00 00 00 02 02 4a 00 00 00 1e 00 00
00:10:04.677 V: [rs485]: Received: 10 - 7e 20 ff af 13 00 03 42 0c 0a 00 28 03 06 03 18 00 00 02 00 00 00 00 02 02 4a 00 00 00 1e 00 00 7d 7e
00:10:04.678 V: [Mess]: Status Response: 00 03 42 0c 0a 00 28 03 06 03 18 00 00 02 00 00 00 00 02 02 4a 00 00 00 1e 00 00
00:10:06.474 V: [rs485]: Received: 10 - 7e 20 ff af 13 00 03 41 0c 0a 00 28 03 06 03 18 00 00 02 00 00 00 00 02 02 4a 00 00 00 1e 00 00 6c 7e
00:10:06.475 V: [Mess]: Status Response: 00 03 41 0c 0a 00 28 03 06 03 18 00 00 02 00 00 00 00 02 02 4a 00 00 00 1e 00 00
00:10:08.573 V: [rs485]: Received: 10 - 7e 20 ff af 13 00 03 40 0c 0a 00 28 03 06 03 18 00 00 02 00 00 00 00 02 02 4a 00 00 00 1e 00 00 9e 7e
00:10:08.575 V: [Mess]: Status Response: 00 03 40 0c 0a 00 28 03 06 03 18 00 00 02 00 00 00 00 02 02 4a 00 00 00 1e 00 00
00:10:10.028 V: [Mess]: Queuing request to spa 'Configuration Settings Filter Information ' - 7e 08 0a bf 22 00 00 01 58 7e 7e 08 0a bf 22 04 00 00 f4 7e 7e 08 0a bf 22 01 00 00 34 7e 7e 08 0a bf 22 02 00 00 89 7e
00:10:10.973 V: [rs485]: Received: 0 - 7e 20 ff af 13 00 03 3f 0c 0a 00 28 03 06 03 18 00 00 02 00 00 00 00 02 02 4a 00 00 00 1e 00 00 e8 7e
00:10:11.273 V: [Mess]: Status Response: 00 03 3f 0c 0a 00 28 03 06 03 18 00 00 02 00 00 00 00 02 02 4a 00 00 00 1e 00 00
00:10:12.773 V: [rs485]: Received: 10 - 7e 20 ff af 13 00 03 3e 0c 0a 00 28 03 06 03 18 00 00 02 00 00 00 00 02 02 4a 00 00 00 1e 00 00 1a 7e
00:10:12.774 V: [Mess]: Status Response: 00 03 3e 0c 0a 00 28 03 06 03 18 00 00 02 00 00 00 00 02 02 4a 00 00 00 1e 00 00
00:10:15.771 V: [rs485]: Received: 10 - 7e 20 ff af 13 00 03 3d 0c 0a 00 28 03 06 03 18 00 00 02 00 00 00 00 02 02 4a 00 00 00 1e 00 00 0b 7e
00:10:15.773 V: [Mess]: Status Response: 00 03 3d 0c 0a 00 28 03 06 03 18 00 00 02 00 00 00 00 02 02 4a 00 00 00 1e 00 00
00:10:17.912 V: [rs485]: Received: 0 - 7e 20 ff af 13 00 03 3c 0c 0a 00 28 03 06 03 18 00 00 02 00 00 00 00 02 02 4a 00 00 00 1e 00 00 f9 7e
00:10:18.172 V: [Mess]: Status Response: 00 03 3c 0c 0a 00 28 03 06 03 18 00 00 02 00 00 00 00 02 02 4a 00 00 00 1e 00 00
00:10:20.911 V: [rs485]: Received: 0 - 7e 20 ff af 13 00 01 3b 0c 0a 00 10 03 06 03 08 00 00 02 00 00 00 00 04 02 4a 00 00 00 1e 00 00 e1 7e
00:10:21.171 V: [Mess]: Status Response: 00 01 3b 0c 0a 00 10 03 06 03 08 00 00 02 00 00 00 00 04 02 4a 00 00 00 1e 00 00
00:10:24.171 V: [rs485]: Received: 10 - 7e 20 ff af 13 00 01 3a 0c 0a 00 10 03 06 03 08 00 00 02 00 00 00 00 04 02 4a 00 00 00 1e 00 00 13 7e
00:10:24.172 V: [Mess]: Status Response: 00 01 3a 0c 0a 00 10 03 06 03 08 00 00 02 00 00 00 00 04 02 4a 00 00 00 1e 00 00
00:10:28.071 V: [rs485]: Received: 0 - 7e 20 ff af 13 00 01 39 0c 0a 00 10 03 06 03 08 00 00 02 00 00 00 00 04 02 4a 00 00 00 1e 00 00 02 7e
00:10:28.371 V: [Mess]: Status Response: 00 01 39 0c 0a 00 10 03 06 03 08 00 00 02 00 00 00 00 04 02 4a 00 00 00 1e 00 00
00:10:32.910 V: [rs485]: Received: 0 - 7e 20 ff af 13 00 03 38 0c 0a 00 28 03 06 03 08 00 00 02 00 00 00 00 02 02 4a 00 00 00 1e 00 00 d8 7e
00:10:33.170 V: [Mess]: Status Response: 00 03 38 0c 0a 00 28 03 06 03 08 00 00 02 00 00 00 00 02 02 4a 00 00 00 1e 00 00
00:11:02.908 V: [rs485]: Received: 0 - 7e 20 ff af 13 00 03 38 0c 0b 00 28 03 06 03 08 00 00 02 00 00 00 00 02 02 4a 00 00 00 1e 00 00 61 7e
00:11:03.170 V: [Mess]: Status Response: 00 03 38 0c 0b 00 28 03 06 03 08 00 00 02 00 00 00 00 02 02 4a 00 00 00 1e 00 00
00:11:32.905 V: [rs485]: Received: 0 - 7e 20 ff af 13 00 03 36 0c 0b 00 28 03 06 03 18 00 00 02 00 00 00 00 02 02 4a 00 00 00 1e 00 00 26 7e
00:11:33.167 V: [Mess]: Status Response: 00 03 36 0c 0b 00 28 03 06 03 18 00 00 02 00 00 00 00 02 02 4a 00 00 00 1e 00 00
00:11:37.967 V: [rs485]: Received: 0 - 7e 20 ff af 13 00 03 36 0c 0b 00 28 03 06 03 18 00 00 02 00 00 00 00 02 02 4a 00 00 00 3c 00 00 b3 7e
00:11:38.269 V: [Mess]: Status Response: 00 03 36 0c 0b 00 28 03 06 03 18 00 00 02 00 00 00 00 02 02 4a 00 00 00 3c 00 00
00:11:39.502 V: [rs485]: Received: 10 - 7e 20 ff af 13 00 03 36 0c 0b 00 28 03 06 03 28 00 00 02 00 00 00 00 02 02 4a 00 00 00 3c 00 00 94 7e
00:11:39.503 V: [Mess]: Status Response: 00 03 36 0c 0b 00 28 03 06 03 28 00 00 02 00 00 00 00 02 02 4a 00 00 00 3c 00 00
00:11:58.367 V: [rs485]: Received: 10 - 7e 20 ff af 13 00 03 35 0c 0b 00 28 03 06 03 28 00 00 02 00 00 00 00 02 02 4a 00 00 00 3c 00 00 85 7e
00:11:58.368 V: [Mess]: Status Response: 00 03 35 0c 0b 00 28 03 06 03 28 00 00 02 00 00 00 00 02 02 4a 00 00 00 3c 00 00
00:12:02.904 V: [rs485]: Received: 0 - 7e 20 ff af 13 00 03 35 0c 0c 00 28 03 06 03 28 00 00 02 00 00 00 00 02 02 4a 00 00 00 3c 00 00 a3 7e
00:12:03.165 V: [Mess]: Status Response: 00 03 35 0c 0c 00 28 03 06 03 28 00 00 02 00 00 00 00 02 02 4a 00 00 00 3c 00 00
00:12:31.352 V: [rs485]: Received: 10 - 7e 20 ff af 13 00 03 34 0c 0c 00 28 03 06 03 28 00 00 02 00 00 00 00 02 02 4a 00 00 00 3c 00 00 51 7e
00:12:31.353 V: [Mess]: Status Response: 00 03 34 0c 0c 00 28 03 06 03 28 00 00 02 00 00 00 00 02 02 4a 00 00 00 3c 00 00
00:13:02.860 V: [rs485]: Received: 0 - 7e 20 ff af 13 00 03 34 0c 0d 00 28 03 06 03 28 00 00 02 00 00 00 00 02 02 4a 00 00 00 3c 00 00 e8 7e
00:13:03.121 V: [Mess]: Status Response: 00 03 34 0c 0d 00 28 03 06 03 28 00 00 02 00 00 00 00 02 02 4a 00 00 00 3c 00 00
00:13:09.417 V: [rs485]: Received: 10 - 7e 20 ff af 13 00 03 34 0c 0d 00 28 03 06 03 18 00 00 02 00 00 00 00 02 02 4a 00 00 00 3c 00 00 cf 7e
00:13:09.418 V: [Mess]: Status Response: 00 03 34 0c 0d 00 28 03 06 03 18 00 00 02 00 00 00 00 02 02 4a 00 00 00 3c 00 00
00:13:11.213 V: [rs485]: Received: 10 - 7e 20 ff af 13 00 03 33 0c 0d 00 28 03 06 03 18 00 00 02 00 00 00 00 02 02 4a 00 00 00 3c 00 00 1f 7e
00:13:11.215 V: [Mess]: Status Response: 00 03 33 0c 0d 00 28 03 06 03 18 00 00 02 00 00 00 00 02 02 4a 00 00 00 3c 00 00
00:13:45.381 V: [rs485]: Received: 10 - 7e 20 ff af 13 00 03 32 0c 0d 00 28 03 06 03 18 00 00 02 00 00 00 00 02 02 4a 00 00 00 3c 00 00 ed 7e
00:13:45.382 V: [Mess]: Status Response: 00 03 32 0c 0d 00 28 03 06 03 18 00 00 02 00 00 00 00 02 02 4a 00 00 00 3c 00 00
00:14:02.806 V: [rs485]: Received: 0 - 7e 20 ff af 13 00 03 32 0c 0e 00 28 03 06 03 18 00 00 02 00 00 00 00 02 02 4a 00 00 00 3c 00 00 21 7e
00:14:03.066 V: [Mess]: Status Response: 00 03 32 0c 0e 00 28 03 06 03 18 00 00 02 00 00 00 00 02 02 4a 00 00 00 3c 00 00

--- exit ---
PS C:\Users\DELL>



Date : 21/4/25

Set Temp 37 degree
measured temp is 25.5

started logs and then gave stimulus;
Went upto 36 degree
Removed stimulus;
Came down to 25.5 degree


Byte #:		01 02 03 04 05 06 07 08 09 10 11 12 13 14 15 16 17 18 19 20 21 22 23 24 25 26 27 28 29 30 31 32 33 34

			7e 20 ff af 13 00 03 34 0c 08 00 28 03 06 03 18 00 00 02 00 00 00 00 02 02 4a 00 00 00 1e 00 00 09 7e - Started Stimulus; temp 26
			7e 20 ff af 13 00 03 35 0c 08 00 28 03 06 03 18 00 00 02 00 00 00 00 02 02 4a 00 00 00 1e 00 00 fb 7e - 26.5
			7e 20 ff af 13 00 03 36 0c 08 00 28 03 06 03 18 00 00 02 00 00 00 00 02 02 4a 00 00 00 1e 00 00 ea 7e - 27
			7e 20 ff af 13 00 03 37 0c 08 00 28 03 06 03 18 00 00 02 00 00 00 00 02 02 4a 00 00 00 1e 00 00 18 7e - 27.5
			7e 20 ff af 13 00 03 38 0c 08 00 28 03 06 03 18 00 00 02 00 00 00 00 02 02 4a 00 00 00 1e 00 00 4d 7e - 28
			7e 20 ff af 13 00 03 3b 0c 08 00 28 03 06 03 18 00 00 02 00 00 00 00 02 02 4a 00 00 00 1e 00 00 5c 7e - 29.5
			7e 20 ff af 13 00 03 3c 0c 08 00 28 03 06 03 18 00 00 02 00 00 00 00 02 02 4a 00 00 00 1e 00 00 8c 7e - 30
			7e 20 ff af 13 00 03 3d 0c 08 00 28 03 06 03 18 00 00 02 00 00 00 00 02 02 4a 00 00 00 1e 00 00 7e 7e - 30.5
			7e 20 ff af 13 00 03 3f 0c 08 00 28 03 06 03 18 00 00 02 00 00 00 00 02 02 4a 00 00 00 1e 00 00 9d 7e - 31.5
			7e 20 ff af 13 00 03 40 0c 08 00 28 03 06 03 18 00 00 02 00 00 00 00 02 02 4a 00 00 00 1e 00 00 eb 7e - 32
			7e 20 ff af 13 00 03 41 0c 08 00 28 03 06 03 18 00 00 02 00 00 00 00 02 02 4a 00 00 00 1e 00 00 19 7e - 32.5
			7e 20 ff af 13 00 03 42 0c 08 00 28 03 06 03 18 00 00 02 00 00 00 00 02 02 4a 00 00 00 1e 00 00 08 7e - 33
			7e 20 ff af 13 00 03 43 0c 08 00 28 03 06 03 18 00 00 02 00 00 00 00 02 02 4a 00 00 00 1e 00 00 fa 7e - 33.5
			7e 20 ff af 13 00 03 44 0c 08 00 28 03 06 03 18 00 00 02 00 00 00 00 02 02 4a 00 00 00 1e 00 00 2a 7e - 34
			7e 20 ff af 13 00 03 45 0c 08 00 28 03 06 03 18 00 00 02 00 00 00 00 02 02 4a 00 00 00 1e 00 00 d8 7e - 34.5
			7e 20 ff af 13 00 03 46 0c 08 00 28 03 06 03 18 00 00 02 00 00 00 00 02 02 4a 00 00 00 1e 00 00 c9 7e - 35
			7e 20 ff af 13 00 03 47 0c 08 00 28 03 06 03 18 00 00 02 00 00 00 00 02 02 4a 00 00 00 1e 00 00 3b 7e - 35.5
 			7e 20 ff af 13 00 03 48 0c 08 00 28 03 06 03 18 00 00 02 00 00 00 00 02 02 4a 00 00 00 1e 00 00 6e 7e - 36
			7e 20 ff af 13 00 03 48 0c 09 00 28 03 06 03 18 00 00 02 00 00 00 00 02 02 4a 00 00 00 1e 00 00 d7 7e - 36
			7e 20 ff af 13 00 03 49 0c 09 00 28 03 06 03 18 00 00 02 00 00 00 00 02 02 4a 00 00 00 1e 00 00 25 7e - 36.5
			7e 20 ff af 13 00 03 48 0c 09 00 28 03 06 03 18 00 00 02 00 00 00 00 02 02 4a 00 00 00 1e 00 00 d7 7e - Removed stimulus; 36
			7e 20 ff af 13 00 03 47 0c 09 00 28 03 06 03 18 00 00 02 00 00 00 00 02 02 4a 00 00 00 1e 00 00 82 7e - 35.5
			7e 20 ff af 13 00 03 46 0c 09 00 28 03 06 03 18 00 00 02 00 00 00 00 02 02 4a 00 00 00 1e 00 00 70 7e - 35
			7e 20 ff af 13 00 03 45 0c 09 00 28 03 06 03 18 00 00 02 00 00 00 00 02 02 4a 00 00 00 1e 00 00 61 7e - 34.5
			7e 20 ff af 13 00 03 44 0c 09 00 28 03 06 03 18 00 00 02 00 00 00 00 02 02 4a 00 00 00 1e 00 00 93 7e - 34
			7e 20 ff af 13 00 03 44 0c 0a 00 28 03 06 03 18 00 00 02 00 00 00 00 02 02 4a 00 00 00 1e 00 00 5f 7e - 34
			7e 20 ff af 13 00 03 43 0c 0a 00 28 03 06 03 18 00 00 02 00 00 00 00 02 02 4a 00 00 00 1e 00 00 8f 7e - 33.5
			7e 20 ff af 13 00 03 42 0c 0a 00 28 03 06 03 18 00 00 02 00 00 00 00 02 02 4a 00 00 00 1e 00 00 7d 7e - 33
			7e 20 ff af 13 00 03 41 0c 0a 00 28 03 06 03 18 00 00 02 00 00 00 00 02 02 4a 00 00 00 1e 00 00 6c 7e - 32.5
			7e 20 ff af 13 00 03 40 0c 0a 00 28 03 06 03 18 00 00 02 00 00 00 00 02 02 4a 00 00 00 1e 00 00 9e 7e - 32
			7e 20 ff af 13 00 03 3f 0c 0a 00 28 03 06 03 18 00 00 02 00 00 00 00 02 02 4a 00 00 00 1e 00 00 e8 7e - 31.5
			7e 20 ff af 13 00 03 3e 0c 0a 00 28 03 06 03 18 00 00 02 00 00 00 00 02 02 4a 00 00 00 1e 00 00 1a 7e - 31
			7e 20 ff af 13 00 03 3d 0c 0a 00 28 03 06 03 18 00 00 02 00 00 00 00 02 02 4a 00 00 00 1e 00 00 0b 7e - 30.5
			7e 20 ff af 13 00 03 3c 0c 0a 00 28 03 06 03 18 00 00 02 00 00 00 00 02 02 4a 00 00 00 1e 00 00 f9 7e - 30
			7e 20 ff af 13 00 01 3b 0c 0a 00 10 03 06 03 08 00 00 02 00 00 00 00 04 02 4a 00 00 00 1e 00 00 e1 7e - 29.5 - relay sound came
			7e 20 ff af 13 00 01 3a 0c 0a 00 10 03 06 03 08 00 00 02 00 00 00 00 04 02 4a 00 00 00 1e 00 00 13 7e - 29
			7e 20 ff af 13 00 01 39 0c 0a 00 10 03 06 03 08 00 00 02 00 00 00 00 04 02 4a 00 00 00 1e 00 00 02 7e - 28.5
			7e 20 ff af 13 00 03 38 0c 0a 00 28 03 06 03 08 00 00 02 00 00 00 00 02 02 4a 00 00 00 1e 00 00 d8 7e - 28
			7e 20 ff af 13 00 03 38 0c 0b 00 28 03 06 03 08 00 00 02 00 00 00 00 02 02 4a 00 00 00 1e 00 00 61 7e - 28
			7e 20 ff af 13 00 03 36 0c 0b 00 28 03 06 03 18 00 00 02 00 00 00 00 02 02 4a 00 00 00 1e 00 00 26 7e - 27
			7e 20 ff af 13 00 03 36 0c 0b 00 28 03 06 03 18 00 00 02 00 00 00 00 02 02 4a 00 00 00 3c 00 00 b3 7e - 27 - Relay sound came
			7e 20 ff af 13 00 03 36 0c 0b 00 28 03 06 03 28 00 00 02 00 00 00 00 02 02 4a 00 00 00 3c 00 00 94 7e - 27
			7e 20 ff af 13 00 03 35 0c 0b 00 28 03 06 03 28 00 00 02 00 00 00 00 02 02 4a 00 00 00 3c 00 00 85 7e - 26.5
			7e 20 ff af 13 00 03 35 0c 0c 00 28 03 06 03 28 00 00 02 00 00 00 00 02 02 4a 00 00 00 3c 00 00 a3 7e - 26.5
			7e 20 ff af 13 00 03 34 0c 0c 00 28 03 06 03 28 00 00 02 00 00 00 00 02 02 4a 00 00 00 3c 00 00 51 7e - 26
			7e 20 ff af 13 00 03 34 0c 0d 00 28 03 06 03 28 00 00 02 00 00 00 00 02 02 4a 00 00 00 3c 00 00 e8 7e - 26
			7e 20 ff af 13 00 03 34 0c 0d 00 28 03 06 03 18 00 00 02 00 00 00 00 02 02 4a 00 00 00 3c 00 00 cf 7e - 26
			7e 20 ff af 13 00 03 33 0c 0d 00 28 03 06 03 18 00 00 02 00 00 00 00 02 02 4a 00 00 00 3c 00 00 1f 7e - 25.5 - Relay sound came
			7e 20 ff af 13 00 03 32 0c 0d 00 28 03 06 03 18 00 00 02 00 00 00 00 02 02 4a 00 00 00 3c 00 00 ed 7e - 25
			7e 20 ff af 13 00 03 32 0c 0e 00 28 03 06 03 18 00 00 02 00 00 00 00 02 02 4a 00 00 00 3c 00 00 21 7e - 25



[Relay ]
Byte #:
                01 02 03 04 05 06 07 08 09 10 11 12 13 14 15 16 17 18 19 20 21 22 23 24 25 26 27 28 29 30 31 32 33 34
00:10:17.912 V: 7e 20 ff af 13 00 03 3c 0c 0a 00 28 03 06 03 18 00 00 02 00 00 00 00 02 02 4a 00 00 00 1e 00 00 f9 7e
00:10:20.911 V: 7e 20 ff af 13 00 01 3b 0c 0a 00 10 03 06 03 08 00 00 02 00 00 00 00 04 02 4a 00 00 00 1e 00 00 e1 7e
00:10:24.171 V: 7e 20 ff af 13 00 01 3a 0c 0a 00 10 03 06 03 08 00 00 02 00 00 00 00 04 02 4a 00 00 00 1e 00 00 13 7e
When measured temp(8th byte) came down from 30 to 29.5 
			: 7th byte changed from 03 to 01
			: 12th byte changed from 28 to 10 -- according to the document, 12th byte is a reminder type. However, our reading is not matching with the values mentioned in the document.
			: 16th byte changed from 18 to 08
			: 24th byte changed from 02 to 04
	

[Relay]
Byte #:
                01 02 03 04 05 06 07 08 09 10 11 12 13 14 15 16 17 18 19 20 21 22 23 24 25 26 27 28 29 30 31 32 33 34
00:11:32.905 V: 7e 20 ff af 13 00 03 36 0c 0b 00 28 03 06 03 18 00 00 02 00 00 00 00 02 02 4a 00 00 00 1e 00 00 26 7e
00:11:37.967 V: 7e 20 ff af 13 00 03 36 0c 0b 00 28 03 06 03 18 00 00 02 00 00 00 00 02 02 4a 00 00 00 3c 00 00 b3 7e
00:11:39.502 V: 7e 20 ff af 13 00 03 36 0c 0b 00 28 03 06 03 28 00 00 02 00 00 00 00 02 02 4a 00 00 00 3c 00 00 94 7e
When measured temp(8th byte) is at 27
			: 16th byte changed from 18 to 28
			: 30th byte changed from 1e to 3c


[Relay - temp 25.5]
Byte #:
                01 02 03 04 05 06 07 08 09 10 11 12 13 14 15 16 17 18 19 20 21 22 23 24 25 26 27 28 29 30 31 32 33 34
00:13:09.417 V: 7e 20 ff af 13 00 03 34 0c 0d 00 28 03 06 03 18 00 00 02 00 00 00 00 02 02 4a 00 00 00 3c 00 00 cf 7e
00:13:11.213 V: 7e 20 ff af 13 00 03 33 0c 0d 00 28 03 06 03 18 00 00 02 00 00 00 00 02 02 4a 00 00 00 3c 00 00 1f 7e
When measured temp(8th byte) changed from 26 to 25.5
			: No other change:::
			
			
			

According to the referance document;
Byte 13 and 14 is showing Sensor A and Sensor B scaled temprature.
15th is temprature scale flag;
16th is temprature range([bit 2]Low or High) and Heating state(Needs heating or not[bit 3] & is heating or not[bit 4-5])
17th - Pump 1 to 4 status
18th - Pump 5 to 6 status




No info regarding Bytes : 22, 23, 28, 29, 31 & 32